09 03 c0 10 00 02 f8 86
09 03 c0 10 00 02 f8 86
00 00 00 00 00 02 f8 86
00 00 00 00 00 02 f8 86
00 00 00 00 00 02 f8 86
00 00 00 00 00 02 f8 86
00 00 00 00 00 02 f8 86
0a 03 c0 20 00 13 38 b6
0a 03 c0 20 00 13 38 b6
0a 03 c0 20 00 13 38 b6
0a 03 c0 20 00 13 38 b6
0a 03 c0 20 00 13 38 b6
0a 03 c0 00 00 02 f9 70
0a 03 c0 00 00 02 f9 70
0a 03 c0 00 00 02 f9 70
0a 03 c0 00 00 02 f9 70
0a 03 c0 00 00 02 f9 70
0a 03 c0 10 00 02 f8 b5
0a 03 c0 10 00 02 f8 b5
0a 03 c0 10 00 02 f8 b5
0a 03 c0 10 00 02 f8 b5
0a 03 c0 10 00 02 f8 b5
00 00 00 00 00 02 f8 b5
0c 03 c0 10 00 02 f8 d3
0c 03 c0 10 00 02 f8 d3
0c 03 c0 10 00 02 f8 d3
0c 03 c0 10 00 02 f8 d3
0c 03 c0 10 00 02 f8 d3
00 00 00 00 00 02 f8 d3
00 00 00 00 00 02 f8 d3
00 00 00 00 00 02 f8 d3
00 00 00 00 00 02 f8 d3
00 00 00 00 00 02 f8 d3
0d 03 c0 20 00 13 39 01
0d 03 c0 20 00 13 39 01
0d 03 c0 20 00 13 39 01
0d 03 c0 20 00 13 39 01
0d 03 c0 20 00 13 39 01
0d 03 c0 00 00 02 f8 c7
0d 03 c0 00 00 02 f8 c7
0d 03 c0 00 00 02 f8 c7
0d 03 c0 00 00 02 f8 c7
0d 03 c0 00 00 02 f8 c7
0d 03 c0 10 00 02 f9 02
0d 03 c0 10 00 02 f9 02
0d 03 c0 10 00 02 f9 02
0d 03 c0 10 00 02 f9 02
0d 03 c0 10 00 02 f9 02
00 00 00 00 00 02 f9 02
00 00 00 00 00 02 f9 02
00 00 00 00 00 02 f9 02
00 00 00 00 00 02 f9 02
00 00 00 00 00 02 f9 02
0e 03 c0 20 00 13 39 32
0e 03 c0 20 00 13 39 32
0e 03 c0 20 00 13 39 32
0e 03 c0 20 00 13 39 32
0e 03 c0 20 00 13 39 32
0e 03 c0 00 00 02 f8 f4
0e 03 c0 00 00 02 f8 f4
0e 03 c0 00 00 02 f8 f4
0e 03 c0 00 00 02 f8 f4
0e 03 c0 00 00 02 f8 f4
0e 03 c0 10 00 02 f9 31
0e 03 c0 10 00 02 f9 31
0e 03 c0 10 00 02 f9 31
0e 03 c0 10 00 02 f9 31
0e 03 c0 10 00 02 f9 31
00 00 00 00 00 02 f9 31
00 00 00 00 00 02 f9 31
00 00 00 00 00 02 f9 31
00 00 00 00 00 02 f9 31
00 00 00 00 00 02 f9 31
0f 03 c0 20 00 13 38 e3
0f 03 c0 20 00 13 38 e3
0f 03 c0 20 00 13 38 e3
0f 03 c0 20 00 13 38 e3
0f 03 c0 20 00 13 38 e3
0f 03 c0 00 00 02 f9 25
0f 03 c0 00 00 02 f9 25
0f 03 c0 00 00 02 f9 25
0f 03 c0 00 00 02 f9 25
0f 03 c0 00 00 02 f9 25
0f 03 c0 10 00 02 f8 e0
0f 03 c0 10 00 02 f8 e0
0f 03 c0 10 00 02 f8 e0
0f 03 c0 10 00 02 f8 e0
0f 03 c0 10 00 02 f8 e0
00 00 00 00 00 02 f8 e0
00 00 00 00 00 02 f8 e0
00 00 00 00 00 02 f8 e0
00 00 00 00 00 02 f8 e0
00 00 00 00 00 02 f8 e0
10 03 c0 20 00 13 3a 8c
10 03 c0 20 00 13 3a 8c
10 03 c0 20 00 13 3a 8c
10 03 c0 20 00 13 3a 8c
10 03 c0 20 00 13 3a 8c
10 03 c0 00 00 02 fb 4a
10 03 c0 00 00 02 fb 4a
10 03 c0 00 00 02 fb 4a
10 03 c0 00 00 02 fb 4a
10 03 c0 00 00 02 fb 4a
10 03 c0 10 00 02 fa 8f
10 03 c0 10 00 02 fa 8f
10 03 c0 10 00 02 fa 8f
10 03 c0 10 00 02 fa 8f
10 03 c0 10 00 02 fa 8f
00 00 00 00 00 02 fa 8f
00 00 00 00 00 02 fa 8f
00 00 00 00 00 02 fa 8f
00 00 00 00 00 02 fa 8f
00 00 00 00 00 02 fa 8f
11 03 c0 20 00 13 3b 5d
11 03 c0 20 00 13 3b 5d
11 03 c0 20 00 13 3b 5d
11 03 c0 20 00 13 3b 5d
11 03 c0 20 00 13 3b 5d
11 03 c0 00 00 02 fa 9b
11 03 c0 00 00 02 fa 9b
11 03 c0 00 00 02 fa 9b
11 03 c0 00 00 02 fa 9b
11 03 c0 00 00 02 fa 9b
11 03 c0 10 00 02 fb 5e
11 03 c0 10 00 02 fb 5e
11 03 c0 10 00 02 fb 5e
11 03 c0 10 00 02 fb 5e
11 03 c0 10 00 02 fb 5e
3d 03 00 00 00 02 c1 37
3d 03 00 00 00 02 c1 37
3d 03 00 00 00 02 c1 37
3e 03 00 00 00 02 c1 04
3e 03 00 00 00 02 c1 04
3e 03 00 00 00 02 c1 04
00 00 00 00 00 02 c1 04
00 00 00 00 00 02 c1 04
00 00 00 00 00 02 c1 04
00 00 00 00 00 02 c1 04
00 00 00 00 00 02 c1 04
01 03 c0 20 00 13 39 cd
01 03 c0 20 00 13 39 cd
01 03 c0 20 00 13 39 cd
01 03 c0 20 00 13 39 cd
01 03 c0 20 00 13 39 cd
01 03 c0 00 00 02 f8 0b
01 03 c0 00 00 02 f8 0b
01 03 c0 00 00 02 f8 0b
01 03 c0 00 00 02 f8 0b
01 03 c0 00 00 02 f8 0b
01 03 c0 10 00 02 f9 ce
01 03 c0 10 00 02 f9 ce
01 03 c0 10 00 02 f9 ce
01 03 c0 10 00 02 f9 ce
01 03 c0 10 00 02 f9 ce
00 00 00 00 00 02 f9 ce
00 00 00 00 00 02 f9 ce
00 00 00 00 00 02 f9 ce
00 00 00 00 00 02 f9 ce
00 00 00 00 00 02 f9 ce
02 03 c0 20 00 13 39 fe
02 03 c0 20 00 13 39 fe
02 03 c0 20 00 13 39 fe
02 03 c0 20 00 13 39 fe
02 03 c0 20 00 13 39 fe
02 03 c0 00 00 02 f8 38
02 03 c0 00 00 02 f8 38
02 03 c0 00 00 02 f8 38
02 03 c0 00 00 02 f8 38
02 03 c0 00 00 02 f8 38
02 03 c0 10 00 02 f9 fd
02 03 c0 10 00 02 f9 fd
02 03 c0 10 00 02 f9 fd
02 03 c0 10 00 02 f9 fd
02 03 c0 10 00 02 f9 fd
00 00 00 00 00 02 f9 fd
00 00 00 00 00 02 f9 fd
00 00 00 00 00 02 f9 fd
00 00 00 00 00 02 f9 fd
00 00 00 00 00 02 f9 fd
03 03 c0 20 00 13 38 2f
03 03 c0 20 00 13 38 2f
03 03 c0 20 00 13 38 2f
03 03 c0 20 00 13 38 2f
